Index   V(VIN_COMMON)         V(VQ)            V(VQB)      
0        0.00000000e+00    4.99995565e-01    4.99997518e-01
1        2.00000000e-03    4.99995355e-01    4.99997530e-01
2        4.00000000e-03    4.99995131e-01    4.99997542e-01
3        6.00000000e-03    4.99994892e-01    4.99997553e-01
4        8.00000000e-03    4.99994638e-01    4.99997565e-01
5        1.00000000e-02    4.99994367e-01    4.99997576e-01
6        1.20000000e-02    4.99994079e-01    4.99997587e-01
7        1.40000000e-02    4.99993771e-01    4.99997598e-01
8        1.60000000e-02    4.99993443e-01    4.99997609e-01
9        1.80000000e-02    4.99993093e-01    4.99997619e-01
10       2.00000000e-02    4.99992720e-01    4.99997630e-01
11       2.20000000e-02    4.99992322e-01    4.99997640e-01
12       2.40000000e-02    4.99991897e-01    4.99997650e-01
13       2.60000000e-02    4.99991443e-01    4.99997660e-01
14       2.80000000e-02    4.99990958e-01    4.99997670e-01
15       3.00000000e-02    4.99990441e-01    4.99997680e-01
16       3.20000000e-02    4.99989888e-01    4.99997689e-01
17       3.40000000e-02    4.99989298e-01    4.99997699e-01
18       3.60000000e-02    4.99988666e-01    4.99997708e-01
19       3.80000000e-02    4.99987991e-01    4.99997717e-01
20       4.00000000e-02    4.99987269e-01    4.99997726e-01
21       4.20000000e-02    4.99986497e-01    4.99997734e-01
22       4.40000000e-02    4.99985670e-01    4.99997743e-01
23       4.60000000e-02    4.99984785e-01    4.99997751e-01
24       4.80000000e-02    4.99983838e-01    4.99997759e-01
25       5.00000000e-02    4.99982823e-01    4.99997767e-01
26       5.20000000e-02    4.99981736e-01    4.99997774e-01
27       5.40000000e-02    4.99980571e-01    4.99997782e-01
28       5.60000000e-02    4.99979322e-01    4.99997789e-01
29       5.80000000e-02    4.99977982e-01    4.99997795e-01
30       6.00000000e-02    4.99976545e-01    4.99997802e-01
31       6.20000000e-02    4.99975002e-01    4.99997808e-01
32       6.40000000e-02    4.99973346e-01    4.99997813e-01
33       6.60000000e-02    4.99971568e-01    4.99997819e-01
34       6.80000000e-02    4.99969657e-01    4.99997823e-01
35       7.00000000e-02    4.99967604e-01    4.99997827e-01
36       7.20000000e-02    4.99965397e-01    4.99997831e-01
37       7.40000000e-02    4.99963024e-01    4.99997834e-01
38       7.60000000e-02    4.99960471e-01    4.99997836e-01
39       7.80000000e-02    4.99957723e-01    4.99997838e-01
40       8.00000000e-02    4.99954764e-01    4.99997839e-01
41       8.20000000e-02    4.99951579e-01    4.99997839e-01
42       8.40000000e-02    4.99948146e-01    4.99997838e-01
43       8.60000000e-02    4.99944447e-01    4.99997835e-01
44       8.80000000e-02    4.99940458e-01    4.99997832e-01
45       9.00000000e-02    4.99936156e-01    4.99997827e-01
46       9.20000000e-02    4.99931515e-01    4.99997821e-01
47       9.40000000e-02    4.99926505e-01    4.99997813e-01
48       9.60000000e-02    4.99921095e-01    4.99997804e-01
49       9.80000000e-02    4.99915251e-01    4.99997793e-01
50       1.00000000e-01    4.99908936e-01    4.99997779e-01
51       1.02000000e-01    4.99902109e-01    4.99997763e-01
52       1.04000000e-01    4.99894727e-01    4.99997745e-01
53       1.06000000e-01    4.99886740e-01    4.99997723e-01
54       1.08000000e-01    4.99878095e-01    4.99997699e-01
55       1.10000000e-01    4.99868736e-01    4.99997671e-01
56       1.12000000e-01    4.99858599e-01    4.99997640e-01
57       1.14000000e-01    4.99847616e-01    4.99997604e-01
58       1.16000000e-01    4.99835710e-01    4.99997564e-01
59       1.18000000e-01    4.99822800e-01    4.99997519e-01
60       1.20000000e-01    4.99808795e-01    4.99997468e-01
61       1.22000000e-01    4.99793598e-01    4.99997411e-01
62       1.24000000e-01    4.99777099e-01    4.99997348e-01
63       1.26000000e-01    4.99759181e-01    4.99997277e-01
64       1.28000000e-01    4.99739713e-01    4.99997198e-01
65       1.30000000e-01    4.99718555e-01    4.99997110e-01
66       1.32000000e-01    4.99695550e-01    4.99997012e-01
67       1.34000000e-01    4.99670528e-01    4.99996903e-01
68       1.36000000e-01    4.99643301e-01    4.99996781e-01
69       1.38000000e-01    4.99613663e-01    4.99996646e-01
70       1.40000000e-01    4.99581390e-01    4.99996495e-01
71       1.42000000e-01    4.99546232e-01    4.99996327e-01
72       1.44000000e-01    4.99507917e-01    4.99996140e-01
73       1.46000000e-01    4.99466146e-01    4.99995932e-01
74       1.48000000e-01    4.99420589e-01    4.99995699e-01
75       1.50000000e-01    4.99370883e-01    4.99995439e-01
76       1.52000000e-01    4.99316629e-01    4.99995149e-01
77       1.54000000e-01    4.99257386e-01    4.99994824e-01
78       1.56000000e-01    4.99192671e-01    4.99994461e-01
79       1.58000000e-01    4.99121947e-01    4.99994054e-01
80       1.60000000e-01    4.99044624e-01    4.99993597e-01
81       1.62000000e-01    4.98960051e-01    4.99993084e-01
82       1.64000000e-01    4.98867506e-01    4.99992507e-01
83       1.66000000e-01    4.98766191e-01    4.99991858e-01
84       1.68000000e-01    4.98655225e-01    4.99991126e-01
85       1.70000000e-01    4.98533628e-01    4.99990299e-01
86       1.72000000e-01    4.98400314e-01    4.99989366e-01
87       1.74000000e-01    4.98254078e-01    4.99988309e-01
88       1.76000000e-01    4.98093577e-01    4.99987111e-01
89       1.78000000e-01    4.97917317e-01    4.99985753e-01
90       1.80000000e-01    4.97723633e-01    4.99984209e-01
91       1.82000000e-01    4.97510660e-01    4.99982453e-01
92       1.84000000e-01    4.97276315e-01    4.99980452e-01
93       1.86000000e-01    4.97018257e-01    4.99978170e-01
94       1.88000000e-01    4.96733856e-01    4.99975563e-01
95       1.90000000e-01    4.96420145e-01    4.99972582e-01
96       1.92000000e-01    4.96073772e-01    4.99969168e-01
97       1.94000000e-01    4.95690930e-01    4.99965253e-01
98       1.96000000e-01    4.95267286e-01    4.99960758e-01
99       1.98000000e-01    4.94797886e-01    4.99955591e-01
100      2.00000000e-01    4.94277035e-01    4.99949643e-01
101      2.02000000e-01    4.93698158e-01    4.99942789e-01
102      2.04000000e-01    4.93053609e-01    4.99934880e-01
103      2.06000000e-01    4.92334437e-01    4.99925743e-01
104      2.08000000e-01    4.91530080e-01    4.99915175e-01
105      2.10000000e-01    4.90627947e-01    4.99902938e-01
106      2.12000000e-01    4.89612869e-01    4.99888752e-01
107      2.14000000e-01    4.88466326e-01    4.99872288e-01
108      2.16000000e-01    4.87165351e-01    4.99853157e-01
109      2.18000000e-01    4.85680938e-01    4.99830903e-01
110      2.20000000e-01    4.83975618e-01    4.99804988e-01
111      2.22000000e-01    4.81999657e-01    4.99774775e-01
112      2.24000000e-01    4.79684781e-01    4.99739511e-01
113      2.26000000e-01    4.76933220e-01    4.99698307e-01
114      2.28000000e-01    4.73597208e-01    4.99650103e-01
115      2.30000000e-01    4.69437138e-01    4.99593642e-01
116      2.32000000e-01    4.64026360e-01    4.99527428e-01
117      2.34000000e-01    4.56503039e-01    4.99449668e-01
118      2.36000000e-01    4.44820959e-01    4.99358219e-01
119      2.38000000e-01    4.23503483e-01    4.99250496e-01
120      2.40000000e-01    3.82769711e-01    4.99123376e-01
121      2.42000000e-01    3.28014599e-01    4.98973066e-01
122      2.44000000e-01    2.90136467e-01    4.98794930e-01
123      2.46000000e-01    2.70146240e-01    4.98583256e-01
124      2.48000000e-01    2.57571854e-01    4.98330947e-01
125      2.50000000e-01    2.48485889e-01    4.98029076e-01
126      2.52000000e-01    2.41362119e-01    4.97666270e-01
127      2.54000000e-01    2.35481912e-01    4.97227783e-01
128      2.56000000e-01    2.30455076e-01    4.96694084e-01
129      2.58000000e-01    2.26047481e-01    4.96038580e-01
130      2.60000000e-01    2.22107985e-01    4.95223744e-01
131      2.62000000e-01    2.18533478e-01    4.94193989e-01
132      2.64000000e-01    2.15250520e-01    4.92861177e-01
133      2.66000000e-01    2.12204976e-01    4.91070575e-01
134      2.68000000e-01    2.09355808e-01    4.88500201e-01
135      2.70000000e-01    2.06671177e-01    4.84193225e-01
136      2.72000000e-01    2.04125891e-01    4.79518904e-03
137      2.74000000e-01    2.01699711e-01    4.32693545e-03
138      2.76000000e-01    1.99376098e-01    3.90744493e-03
139      2.78000000e-01    1.97141413e-01    3.53111064e-03
140      2.80000000e-01    1.94984269e-01    3.19307005e-03
141      2.82000000e-01    1.92895076e-01    2.88908694e-03
142      2.84000000e-01    1.90865688e-01    2.61545575e-03
143      2.86000000e-01    1.88889137e-01    2.36892343e-03
144      2.88000000e-01    1.86959424e-01    2.14662493e-03
145      2.90000000e-01    1.85071356e-01    1.94602968e-03
146      2.92000000e-01    1.83220415e-01    1.76489675e-03
147      2.94000000e-01    1.81402651e-01    1.60123710e-03
148      2.96000000e-01    1.79614604e-01    1.45328159e-03
149      2.98000000e-01    1.77853229e-01    1.31945371e-03
150      3.00000000e-01    1.76115831e-01    1.19834627e-03
151      3.02000000e-01    1.74400024e-01    1.08870125e-03
152      3.04000000e-01    1.72703689e-01    9.89392458e-04
153      3.06000000e-01    1.71024945e-01    8.99410475e-04
154      3.08000000e-01    1.69362113e-01    8.17849505e-04
155      3.10000000e-01    1.67713698e-01    7.43895919e-04
156      3.12000000e-01    1.66078364e-01    6.76818187e-04
157      3.14000000e-01    1.64454921e-01    6.15958046e-04
158      3.16000000e-01    1.62842303e-01    5.60722697e-04
159      3.18000000e-01    1.61239561e-01    5.10577923e-04
160      3.20000000e-01    1.59645849e-01    4.65041988e-04
161      3.22000000e-01    1.58060412e-01    4.23680226e-04
162      3.24000000e-01    1.56482583e-01    3.86100226e-04
163      3.26000000e-01    1.54911770e-01    3.51947547e-04
164      3.28000000e-01    1.53347454e-01    3.20901900e-04
165      3.30000000e-01    1.51789181e-01    2.92673730e-04
166      3.32000000e-01    1.50236448e-01    2.67001161e-04
167      3.34000000e-01    1.48688717e-01    2.43647268e-04
168      3.36000000e-01    1.47145706e-01    2.22397620e-04
169      3.38000000e-01    1.45607190e-01    2.03058084e-04
170      3.40000000e-01    1.44072996e-01    1.85452851e-04
171      3.42000000e-01    1.42542998e-01    1.69422656e-04
172      3.44000000e-01    1.41017117e-01    1.54823185e-04
173      3.46000000e-01    1.39495325e-01    1.41523638e-04
174      3.48000000e-01    1.37977638e-01    1.29405432e-04
175      3.50000000e-01    1.36464277e-01    1.18361458e-04
176      3.52000000e-01    1.34955715e-01    1.08295022e-04
177      3.54000000e-01    1.33452131e-01    9.91173150e-05
178      3.56000000e-01    1.31953741e-01    9.07477381e-05
179      3.58000000e-01    1.30460813e-01    8.31131711e-05
180      3.60000000e-01    1.28973674e-01    7.61472634e-05
181      3.62000000e-01    1.27492711e-01    6.97897941e-05
182      3.64000000e-01    1.26018370e-01    6.39860935e-05
183      3.66000000e-01    1.24551165e-01    5.86865209e-05
184      3.68000000e-01    1.23091674e-01    5.38459920e-05
185      3.70000000e-01    1.21640547e-01    4.94235520e-05
186      3.72000000e-01    1.20198505e-01    4.53819900e-05
187      3.74000000e-01    1.18766338e-01    4.16874887e-05
188      3.76000000e-01    1.17344911e-01    3.83093092e-05
189      3.78000000e-01    1.15935157e-01    3.52195046e-05
190      3.80000000e-01    1.14538076e-01    3.23926609e-05
191      3.82000000e-01    1.13154731e-01    2.98056627e-05
192      3.84000000e-01    1.11786234e-01    2.74374808e-05
193      3.86000000e-01    1.10433746e-01    2.52689796e-05
194      3.88000000e-01    1.09098452e-01    2.32827431e-05
195      3.90000000e-01    1.07781557e-01    2.14629168e-05
196      3.92000000e-01    1.06484261e-01    1.97950646e-05
197      3.94000000e-01    1.05207745e-01    1.82660387e-05
198      3.96000000e-01    1.03953147e-01    1.68638624e-05
199      3.98000000e-01    1.02721546e-01    1.55776229e-05
200      4.00000000e-01    1.01513941e-01    1.43973748e-05
201      4.02000000e-01    1.00331231e-01    1.33140521e-05
202      4.04000000e-01    9.91742083e-02    1.23193885e-05
203      4.06000000e-01    9.80435377e-02    1.14058453e-05
204      4.08000000e-01    9.69397549e-02    1.05665454e-05
205      4.10000000e-01    9.58632606e-02    9.79521381e-06
206      4.12000000e-01    9.48143206e-02    9.08612377e-06
207      4.14000000e-01    9.37930691e-02    8.43404727e-06
208      4.16000000e-01    9.27995156e-02    7.83421059e-06
209      4.18000000e-01    9.18335535e-02    7.28225367e-06
210      4.20000000e-01    9.08949704e-02    6.77419328e-06
211      4.22000000e-01    8.99834599e-02    6.30638950e-06
212      4.24000000e-01    8.90986339e-02    5.87551531e-06
213      4.26000000e-01    8.82400345e-02    5.47852885e-06
214      4.28000000e-01    8.74071456e-02    5.11264829e-06
215      4.30000000e-01    8.65994045e-02    4.77532894e-06
216      4.32000000e-01    8.58162115e-02    4.46424238e-06
217      4.34000000e-01    8.50569391e-02    4.17725752e-06
218      4.36000000e-01    8.43209406e-02    3.91242337e-06
219      4.38000000e-01    8.36075567e-02    3.66795334e-06
220      4.40000000e-01    8.29161219e-02    3.44221091e-06
221      4.42000000e-01    8.22459691e-02    3.23369664e-06
222      4.44000000e-01    8.15964348e-02    3.04103630e-06
223      4.46000000e-01    8.09668618e-02    2.86297007e-06
224      4.48000000e-01    8.03566025e-02    2.69834270e-06
225      4.50000000e-01    7.97650210e-02    2.54609450e-06
226      4.52000000e-01    7.91914950e-02    2.40525321e-06
227      4.54000000e-01    7.86354173e-02    2.27492651e-06
228      4.56000000e-01    7.80961964e-02    2.15429520e-06
229      4.58000000e-01    7.75732575e-02    2.04260701e-06
230      4.60000000e-01    7.70660429e-02    1.93917094e-06
231      4.62000000e-01    7.65740121e-02    1.84335207e-06
232      4.64000000e-01    7.60966420e-02    1.75456684e-06
233      4.66000000e-01    7.56334270e-02    1.67227877e-06
234      4.68000000e-01    7.51838785e-02    1.59599445e-06
235      4.70000000e-01    7.47475248e-02    1.52526002e-06
236      4.72000000e-01    7.43239107e-02    1.45965784e-06
237      4.74000000e-01    7.39125974e-02    1.39880348e-06
238      4.76000000e-01    7.35131618e-02    1.34234299e-06
239      4.78000000e-01    7.31251960e-02    1.28995038e-06
240      4.80000000e-01    7.27483074e-02    1.24132531e-06
241      4.82000000e-01    7.23821173e-02    1.19619103e-06
242      4.84000000e-01    7.20262614e-02    1.15429237e-06
243      4.86000000e-01    7.16803887e-02    1.11539408e-06
244      4.88000000e-01    7.13441612e-02    1.07927913e-06
245      4.90000000e-01    7.10172535e-02    1.04574728e-06
246      4.92000000e-01    7.06993523e-02    1.01461373e-06
247      4.94000000e-01    7.03901560e-02    9.85707848e-07
248      4.96000000e-01    7.00893740e-02    9.58872044e-07
249      4.98000000e-01    6.97967267e-02    9.33960748e-07
250      5.00000000e-01    6.95119449e-02    9.10839432e-07
251      0.00000000e+00    4.99995565e-01    4.99997761e-01
252      2.00000000e-03    4.99995355e-01    4.99997555e-01
253      4.00000000e-03    4.99995131e-01    4.99997568e-01
254      6.00000000e-03    4.99994892e-01    4.99997580e-01
255      8.00000000e-03    4.99994638e-01    4.99997592e-01
256      1.00000000e-02    4.99994367e-01    4.99997604e-01
257      1.20000000e-02    4.99994079e-01    4.99997616e-01
258      1.40000000e-02    4.99993771e-01    4.99997627e-01
259      1.60000000e-02    4.99993443e-01    4.99997639e-01
260      1.80000000e-02    4.99993093e-01    4.99997650e-01
261      2.00000000e-02    4.99992720e-01    4.99997662e-01
262      2.20000000e-02    4.99992322e-01    4.99997673e-01
263      2.40000000e-02    4.99991897e-01    4.99997684e-01
264      2.60000000e-02    4.99991443e-01    4.99997695e-01
265      2.80000000e-02    4.99990958e-01    4.99997706e-01
266      3.00000000e-02    4.99990441e-01    4.99997717e-01
267      3.20000000e-02    4.99989888e-01    4.99997728e-01
268      3.40000000e-02    4.99989298e-01    4.99997739e-01
269      3.60000000e-02    4.99988666e-01    4.99997749e-01
270      3.80000000e-02    4.99987991e-01    4.99997760e-01
271      4.00000000e-02    4.99987269e-01    4.99997770e-01
272      4.20000000e-02    4.99986497e-01    4.99997780e-01
273      4.40000000e-02    4.99985670e-01    4.99997791e-01
274      4.60000000e-02    4.99984785e-01    4.99997801e-01
275      4.80000000e-02    4.99983838e-01    4.99997811e-01
276      5.00000000e-02    4.99982823e-01    4.99997821e-01
277      5.20000000e-02    4.99981736e-01    4.99997831e-01
278      5.40000000e-02    4.99980571e-01    4.99997841e-01
279      5.60000000e-02    4.99979322e-01    4.99997850e-01
280      5.80000000e-02    4.99977982e-01    4.99997860e-01
281      6.00000000e-02    4.99976545e-01    4.99997869e-01
282      6.20000000e-02    4.99975002e-01    4.99997879e-01
283      6.40000000e-02    4.99973346e-01    4.99997888e-01
284      6.60000000e-02    4.99971568e-01    4.99997897e-01
285      6.80000000e-02    4.99969657e-01    4.99997906e-01
286      7.00000000e-02    4.99967604e-01    4.99997915e-01
287      7.20000000e-02    4.99965397e-01    4.99997923e-01
288      7.40000000e-02    4.99963024e-01    4.99997931e-01
289      7.60000000e-02    4.99960471e-01    4.99997939e-01
290      7.80000000e-02    4.99957723e-01    4.99997947e-01
291      8.00000000e-02    4.99954764e-01    4.99997954e-01
292      8.20000000e-02    4.99951579e-01    4.99997961e-01
293      8.40000000e-02    4.99948146e-01    4.99997968e-01
294      8.60000000e-02    4.99944447e-01    4.99997974e-01
295      8.80000000e-02    4.99940458e-01    4.99997980e-01
296      9.00000000e-02    4.99936156e-01    4.99997985e-01
297      9.20000000e-02    4.99931515e-01    4.99997990e-01
298      9.40000000e-02    4.99926505e-01    4.99997994e-01
299      9.60000000e-02    4.99921095e-01    4.99997997e-01
300      9.80000000e-02    4.99915251e-01    4.99998000e-01
301      1.00000000e-01    4.99908936e-01    4.99998001e-01
302      1.02000000e-01    4.99902109e-01    4.99998002e-01
303      1.04000000e-01    4.99894727e-01    4.99998001e-01
304      1.06000000e-01    4.99886740e-01    4.99998000e-01
305      1.08000000e-01    4.99878095e-01    4.99997997e-01
306      1.10000000e-01    4.99868736e-01    4.99997992e-01
307      1.12000000e-01    4.99858599e-01    4.99997986e-01
308      1.14000000e-01    4.99847616e-01    4.99997978e-01
309      1.16000000e-01    4.99835710e-01    4.99997969e-01
310      1.18000000e-01    4.99822800e-01    4.99997957e-01
311      1.20000000e-01    4.99808795e-01    4.99997943e-01
312      1.22000000e-01    4.99793598e-01    4.99997926e-01
313      1.24000000e-01    4.99777099e-01    4.99997906e-01
314      1.26000000e-01    4.99759181e-01    4.99997884e-01
315      1.28000000e-01    4.99739713e-01    4.99997857e-01
316      1.30000000e-01    4.99718555e-01    4.99997827e-01
317      1.32000000e-01    4.99695550e-01    4.99997793e-01
318      1.34000000e-01    4.99670528e-01    4.99997753e-01
319      1.36000000e-01    4.99643301e-01    4.99997708e-01
320      1.38000000e-01    4.99613663e-01    4.99997657e-01
321      1.40000000e-01    4.99581390e-01    4.99997599e-01
322      1.42000000e-01    4.99546232e-01    4.99997533e-01
323      1.44000000e-01    4.99507917e-01    4.99997457e-01
324      1.46000000e-01    4.99466146e-01    4.99997372e-01
325      1.48000000e-01    4.99420589e-01    4.99997274e-01
326      1.50000000e-01    4.99370883e-01    4.99997164e-01
327      1.52000000e-01    4.99316629e-01    4.99997037e-01
328      1.54000000e-01    4.99257386e-01    4.99996893e-01
329      1.56000000e-01    4.99192671e-01    4.99996729e-01
330      1.58000000e-01    4.99121947e-01    4.99996540e-01
331      1.60000000e-01    4.99044624e-01    4.99996325e-01
