Index       TIME              V(WL)            V(WWLA)           V(WWLB)            V(BL)             V(Q)              V(QB)      
0        0.00000000e+00    0.00000000e+00    0.00000000e+00    6.00000000e-01    6.00000000e-01    6.00000000e-01    0.00000000e+00
1        1.00000000e-11    0.00000000e+00    0.00000000e+00    6.00000000e-01    6.00000000e-01    5.99998512e-01    1.96073119e-06
2        3.00000000e-11    0.00000000e+00    0.00000000e+00    6.00000000e-01    6.00000000e-01    5.99996574e-01    3.70190088e-06
3        7.00000000e-11    0.00000000e+00    0.00000000e+00    6.00000000e-01    6.00000000e-01    5.99994090e-01    5.26944611e-06
4        1.50000000e-10    0.00000000e+00    0.00000000e+00    6.00000000e-01    6.00000000e-01    5.99993161e-01    5.11635990e-06
5        3.10000000e-10    0.00000000e+00    0.00000000e+00    6.00000000e-01    6.00000000e-01    5.99993321e-01    5.23368651e-06
6        6.30000000e-10    0.00000000e+00    0.00000000e+00    6.00000000e-01    6.00000000e-01    5.99993233e-01    5.14262765e-06
7        1.27000000e-09    0.00000000e+00    0.00000000e+00    6.00000000e-01    6.00000000e-01    5.99993300e-01    5.22264290e-06
8        2.55000000e-09    0.00000000e+00    0.00000000e+00    6.00000000e-01    6.00000000e-01    5.99993242e-01    5.14765505e-06
9        5.11000000e-09    0.00000000e+00    0.00000000e+00    6.00000000e-01    6.00000000e-01    5.99993296e-01    5.22026335e-06
10       9.11000000e-09    0.00000000e+00    0.00000000e+00    6.00000000e-01    6.00000000e-01    5.99993243e-01    5.14894616e-06
11       1.00000000e-08    0.00000000e+00    0.00000000e+00    6.00000000e-01    6.00000000e-01    5.99993292e-01    5.21764508e-06
12       1.00002500e-08    1.50000000e-02    0.00000000e+00    6.00000000e-01    6.00000000e-01    6.00228639e-01    2.33467657e-05
13       1.00004350e-08    2.61014125e-02    0.00000000e+00    6.00000000e-01    6.00000000e-01    6.00448740e-01    4.13006002e-05
14       1.00006200e-08    3.72028249e-02    0.00000000e+00    6.00000000e-01    6.00000000e-01    6.00680880e-01    6.07547208e-05
15       1.00009901e-08    5.94056498e-02    0.00000000e+00    6.00000000e-01    6.00000000e-01    6.01167070e-01    1.04673123e-04
16       1.00017302e-08    1.03811300e-01    0.00000000e+00    6.00000000e-01    6.00000000e-01    6.02120916e-01    1.99152039e-04
17       1.00024703e-08    1.48216950e-01    0.00000000e+00    6.00000000e-01    6.00000000e-01    6.03052507e-01    2.95471840e-04
18       1.00039505e-08    2.37028249e-01    0.00000000e+00    6.00000000e-01    6.00000000e-01    6.04880610e-01    4.78194787e-04
19       1.00069108e-08    4.14650849e-01    0.00000000e+00    6.00000000e-01    6.00000000e-01    6.08521338e-01    7.94936837e-04
20       1.00100000e-08    6.00000000e-01    0.00000000e+00    6.00000000e-01    6.00000000e-01    6.12621130e-01    1.08949444e-03
21       1.00105921e-08    6.00000000e-01    0.00000000e+00    6.00000000e-01    6.00000000e-01    6.12508557e-01    1.05917700e-03
22       1.00110478e-08    6.00000000e-01    0.00000000e+00    6.00000000e-01    6.00000000e-01    6.12322527e-01    1.02130846e-03
23       1.00115036e-08    6.00000000e-01    0.00000000e+00    6.00000000e-01    6.00000000e-01    6.12125088e-01    9.78207221e-04
24       1.00119593e-08    6.00000000e-01    0.00000000e+00    6.00000000e-01    6.00000000e-01    6.11928678e-01    9.33606402e-04
25       1.00128708e-08    6.00000000e-01    0.00000000e+00    6.00000000e-01    6.00000000e-01    6.11553156e-01    8.41258201e-04
26       1.00146938e-08    6.00000000e-01    0.00000000e+00    6.00000000e-01    6.00000000e-01    6.10857078e-01    6.66295548e-04
27       1.00183398e-08    6.00000000e-01    0.00000000e+00    6.00000000e-01    6.00000000e-01    6.09601784e-01    3.82522100e-04
28       1.00256317e-08    6.00000000e-01    0.00000000e+00    6.00000000e-01    6.00000000e-01    6.07518067e-01    2.67719754e-05
29       1.00402156e-08    6.00000000e-01    0.00000000e+00    6.00000000e-01    6.00000000e-01    6.04599849e-01   -2.29719775e-04
30       1.00693834e-08    6.00000000e-01    0.00000000e+00    6.00000000e-01    6.00000000e-01    6.01638986e-01   -1.80321157e-04
31       1.01277190e-08    6.00000000e-01    0.00000000e+00    6.00000000e-01    6.00000000e-01    6.00049730e-01    1.11989507e-07
32       1.01860547e-08    6.00000000e-01    0.00000000e+00    6.00000000e-01    6.00000000e-01    5.99995627e-01    4.54015495e-06
33       1.03027259e-08    6.00000000e-01    0.00000000e+00    6.00000000e-01    6.00000000e-01    5.99992719e-01    5.50845755e-06
34       1.04193971e-08    6.00000000e-01    0.00000000e+00    6.00000000e-01    6.00000000e-01    5.99993821e-01    5.00623949e-06
35       1.06527395e-08    6.00000000e-01    0.00000000e+00    6.00000000e-01    6.00000000e-01    5.99993193e-01    5.32058196e-06
36       1.11194244e-08    6.00000000e-01    0.00000000e+00    6.00000000e-01    6.00000000e-01    5.99993729e-01    5.06457076e-06
37       1.20527942e-08    6.00000000e-01    0.00000000e+00    6.00000000e-01    6.00000000e-01    5.99993223e-01    5.29671267e-06
38       1.39195338e-08    6.00000000e-01    0.00000000e+00    6.00000000e-01    6.00000000e-01    5.99993717e-01    5.07544306e-06
39       1.76530129e-08    6.00000000e-01    0.00000000e+00    6.00000000e-01    6.00000000e-01    5.99993229e-01    5.29153914e-06
40       2.00000000e-08    6.00000000e-01    0.00000000e+00    6.00000000e-01    6.00000000e-01    5.99993712e-01    5.07979527e-06
41       2.00006250e-08    6.00000000e-01    3.75000000e-03    6.00000000e-01    5.96250000e-01    6.00142214e-01    4.42553374e-05
42       2.00018750e-08    6.00000000e-01    1.12500000e-02    6.00000000e-01    5.88750000e-01    6.00505240e-01    1.04987218e-04
43       2.00031250e-08    6.00000000e-01    1.87500000e-02    6.00000000e-01    5.81250000e-01    6.00874008e-01    1.55098327e-04
44       2.00056250e-08    6.00000000e-01    3.37500000e-02    6.00000000e-01    5.66250000e-01    6.01593360e-01    2.17745120e-04
45       2.00106250e-08    6.00000000e-01    6.37500000e-02    6.00000000e-01    5.36250000e-01    6.02868869e-01    2.88081407e-04
46       2.00206250e-08    6.00000000e-01    1.23750000e-01    6.00000000e-01    4.76250000e-01    6.04914828e-01    3.21412159e-04
47       2.00406250e-08    6.00000000e-01    2.43750000e-01    6.00000000e-01    3.56250000e-01    6.07730902e-01    2.11285202e-04
48       2.00606250e-08    6.00000000e-01    3.63750000e-01    6.00000000e-01    2.36250000e-01    6.04490719e-01   -1.67316508e-04
49       2.00668543e-08    6.00000000e-01    4.01125920e-01    6.00000000e-01    1.98874080e-01    5.96265593e-01   -6.74561996e-04
50       2.00697353e-08    6.00000000e-01    4.18411500e-01    6.00000000e-01    1.81588500e-01    5.90460965e-01   -1.03418928e-03
51       2.00726162e-08    6.00000000e-01    4.35697080e-01    6.00000000e-01    1.64302920e-01    5.83340574e-01   -1.47877278e-03
52       2.00783780e-08    6.00000000e-01    4.70268241e-01    6.00000000e-01    1.29731759e-01    5.59122877e-01   -2.99643458e-03
53       2.00833250e-08    6.00000000e-01    4.99950207e-01    6.00000000e-01    1.00049793e-01    5.24986128e-01   -5.12125942e-03
54       2.00877047e-08    6.00000000e-01    5.26228221e-01    6.00000000e-01    7.37717793e-02    4.82142595e-01   -7.77545172e-03
55       2.00916464e-08    6.00000000e-01    5.49878433e-01    6.00000000e-01    5.01215674e-02    4.32182694e-01   -1.08200827e-02
56       2.00955881e-08    6.00000000e-01    5.73528644e-01    6.00000000e-01    2.64713555e-02    3.70616960e-01   -1.43129877e-02
57       2.00995298e-08    6.00000000e-01    5.97178856e-01    6.00000000e-01    2.82114361e-03    2.97694492e-01   -1.76396841e-02
58       2.01000000e-08    6.00000000e-01    6.00000000e-01    6.00000000e-01    0.00000000e+00    2.88292066e-01   -1.79885889e-02
59       2.01002001e-08    6.00000000e-01    6.00000000e-01    6.00000000e-01    0.00000000e+00    2.84238060e-01   -1.81305622e-02
60       2.01003736e-08    6.00000000e-01    6.00000000e-01    6.00000000e-01    0.00000000e+00    2.80723604e-01   -1.82489965e-02
61       2.01007206e-08    6.00000000e-01    6.00000000e-01    6.00000000e-01    0.00000000e+00    2.73710008e-01   -1.84727636e-02
62       2.01014145e-08    6.00000000e-01    6.00000000e-01    6.00000000e-01    0.00000000e+00    2.59822363e-01   -1.88230710e-02
63       2.01028024e-08    6.00000000e-01    6.00000000e-01    6.00000000e-01    0.00000000e+00    2.32779125e-01   -1.90443059e-02
64       2.01041903e-08    6.00000000e-01    6.00000000e-01    6.00000000e-01    0.00000000e+00    2.06912267e-01   -1.84982788e-02
65       2.01055782e-08    6.00000000e-01    6.00000000e-01    6.00000000e-01    0.00000000e+00    1.82564813e-01   -1.70262229e-02
66       2.01069660e-08    6.00000000e-01    6.00000000e-01    6.00000000e-01    0.00000000e+00    1.60140779e-01   -1.45235618e-02
67       2.01083539e-08    6.00000000e-01    6.00000000e-01    6.00000000e-01    0.00000000e+00    1.40016930e-01   -1.09581174e-02
68       2.01097418e-08    6.00000000e-01    6.00000000e-01    6.00000000e-01    0.00000000e+00    1.22424750e-01   -6.36664372e-03
69       2.01111297e-08    6.00000000e-01    6.00000000e-01    6.00000000e-01    0.00000000e+00    1.07391236e-01   -8.34580371e-04
70       2.01125176e-08    6.00000000e-01    6.00000000e-01    6.00000000e-01    0.00000000e+00    9.47387006e-02    5.52628983e-03
71       2.01139054e-08    6.00000000e-01    6.00000000e-01    6.00000000e-01    0.00000000e+00    8.40870127e-02    1.26080400e-02
72       2.01152933e-08    6.00000000e-01    6.00000000e-01    6.00000000e-01    0.00000000e+00    7.47169877e-02    2.03680853e-02
73       2.01166812e-08    6.00000000e-01    6.00000000e-01    6.00000000e-01    0.00000000e+00    6.56993365e-02    2.88753024e-02
74       2.01180691e-08    6.00000000e-01    6.00000000e-01    6.00000000e-01    0.00000000e+00    5.66922383e-02    3.82015199e-02
75       2.01194570e-08    6.00000000e-01    6.00000000e-01    6.00000000e-01    0.00000000e+00    4.81140913e-02    4.82982486e-02
76       2.01208448e-08    6.00000000e-01    6.00000000e-01    6.00000000e-01    0.00000000e+00    4.04396224e-02    5.90513155e-02
77       2.01236206e-08    6.00000000e-01    6.00000000e-01    6.00000000e-01    0.00000000e+00    2.82745830e-02    8.20374602e-02
78       2.01263963e-08    6.00000000e-01    6.00000000e-01    6.00000000e-01    0.00000000e+00    1.98719204e-02    1.06452608e-01
79       2.01291721e-08    6.00000000e-01    6.00000000e-01    6.00000000e-01    0.00000000e+00    1.42652799e-02    1.31714121e-01
80       2.01319479e-08    6.00000000e-01    6.00000000e-01    6.00000000e-01    0.00000000e+00    1.05792933e-02    1.57414455e-01
81       2.01374994e-08    6.00000000e-01    6.00000000e-01    6.00000000e-01    0.00000000e+00    6.54083014e-03    2.09073466e-01
82       2.01430509e-08    6.00000000e-01    6.00000000e-01    6.00000000e-01    0.00000000e+00    5.00472204e-03    2.60196206e-01
83       2.01486024e-08    6.00000000e-01    6.00000000e-01    6.00000000e-01    0.00000000e+00    4.43941801e-03    3.09906888e-01
84       2.01541539e-08    6.00000000e-01    6.00000000e-01    6.00000000e-01    0.00000000e+00    4.14405544e-03    3.57616987e-01
85       2.01597054e-08    6.00000000e-01    6.00000000e-01    6.00000000e-01    0.00000000e+00    3.82287471e-03    4.02719978e-01
86       2.01652569e-08    6.00000000e-01    6.00000000e-01    6.00000000e-01    0.00000000e+00    3.41219956e-03    4.44285827e-01
87       2.01708085e-08    6.00000000e-01    6.00000000e-01    6.00000000e-01    0.00000000e+00    2.94292630e-03    4.81117656e-01
88       2.01763600e-08    6.00000000e-01    6.00000000e-01    6.00000000e-01    0.00000000e+00    2.45039827e-03    5.12195781e-01
89       2.01819115e-08    6.00000000e-01    6.00000000e-01    6.00000000e-01    0.00000000e+00    1.97315759e-03    5.37087265e-01
90       2.01874630e-08    6.00000000e-01    6.00000000e-01    6.00000000e-01    0.00000000e+00    1.54933627e-03    5.56067231e-01
91       2.01930145e-08    6.00000000e-01    6.00000000e-01    6.00000000e-01    0.00000000e+00    1.19249217e-03    5.69948121e-01
92       2.01985660e-08    6.00000000e-01    6.00000000e-01    6.00000000e-01    0.00000000e+00    9.03860431e-04    5.79776565e-01
93       2.02041175e-08    6.00000000e-01    6.00000000e-01    6.00000000e-01    0.00000000e+00    6.78813309e-04    5.86570733e-01
94       2.02096690e-08    6.00000000e-01    6.00000000e-01    6.00000000e-01    0.00000000e+00    5.08986745e-04    5.91185483e-01
95       2.02207721e-08    6.00000000e-01    6.00000000e-01    6.00000000e-01    0.00000000e+00    2.90006349e-04    5.96475122e-01
96       2.02429781e-08    6.00000000e-01    6.00000000e-01    6.00000000e-01    0.00000000e+00    1.11203518e-04    5.99897425e-01
97       2.02651842e-08    6.00000000e-01    6.00000000e-01    6.00000000e-01    0.00000000e+00    7.10566292e-05    6.00163091e-01
98       2.02873902e-08    6.00000000e-01    6.00000000e-01    6.00000000e-01    0.00000000e+00    5.36077226e-05    6.00137446e-01
99       2.03095963e-08    6.00000000e-01    6.00000000e-01    6.00000000e-01    0.00000000e+00    4.47316461e-05    6.00106288e-01
100      2.03540084e-08    6.00000000e-01    6.00000000e-01    6.00000000e-01    0.00000000e+00    3.36448721e-05    6.00069512e-01
101      2.04428326e-08    6.00000000e-01    6.00000000e-01    6.00000000e-01    0.00000000e+00    2.37774925e-05    6.00039053e-01
102      2.06204810e-08    6.00000000e-01    6.00000000e-01    6.00000000e-01    0.00000000e+00    1.58517654e-05    6.00018838e-01
103      2.07981295e-08    6.00000000e-01    6.00000000e-01    6.00000000e-01    0.00000000e+00    1.26937483e-05    6.00011663e-01
104      2.11534263e-08    6.00000000e-01    6.00000000e-01    6.00000000e-01    0.00000000e+00    9.13670458e-06    6.00005653e-01
105      2.15087232e-08    6.00000000e-01    6.00000000e-01    6.00000000e-01    0.00000000e+00    7.51265624e-06    6.00003395e-01
106      2.22193169e-08    6.00000000e-01    6.00000000e-01    6.00000000e-01    0.00000000e+00    5.36215124e-06    6.00001364e-01
107      2.29299106e-08    6.00000000e-01    6.00000000e-01    6.00000000e-01    0.00000000e+00    4.42067451e-06    6.00000675e-01
108      2.43510980e-08    6.00000000e-01    6.00000000e-01    6.00000000e-01    0.00000000e+00    3.05164224e-06    5.99999979e-01
109      2.57722855e-08    6.00000000e-01    6.00000000e-01    6.00000000e-01    0.00000000e+00    2.55183113e-06    5.99999811e-01
110      2.86146603e-08    6.00000000e-01    6.00000000e-01    6.00000000e-01    0.00000000e+00    1.70424359e-06    5.99999552e-01
111      2.99000000e-08    6.00000000e-01    6.00000000e-01    6.00000000e-01    0.00000000e+00    1.66779256e-06    5.99999578e-01
112      2.99006250e-08    6.00000000e-01    5.96250000e-01    6.00000000e-01    0.00000000e+00   -3.83770108e-05    5.99984003e-01
113      2.99018750e-08    6.00000000e-01    5.88750000e-01    6.00000000e-01    0.00000000e+00   -1.09584041e-04    5.99951889e-01
114      2.99031250e-08    6.00000000e-01    5.81250000e-01    6.00000000e-01    0.00000000e+00   -1.71876224e-04    5.99921377e-01
115      2.99056250e-08    6.00000000e-01    5.66250000e-01    6.00000000e-01    0.00000000e+00   -2.51994830e-04    5.99870899e-01
116      2.99106250e-08    6.00000000e-01    5.36250000e-01    6.00000000e-01    0.00000000e+00   -3.19786175e-04    5.99799329e-01
117      2.99206250e-08    6.00000000e-01    4.76250000e-01    6.00000000e-01    0.00000000e+00   -3.40154905e-04    5.99716505e-01
118      2.99406250e-08    6.00000000e-01    3.56250000e-01    6.00000000e-01    0.00000000e+00   -2.74845617e-04    5.99626135e-01
119      2.99606250e-08    6.00000000e-01    2.36250000e-01    6.00000000e-01    0.00000000e+00    5.09673898e-05    5.99479621e-01
120      2.99806250e-08    6.00000000e-01    1.16250000e-01    6.00000000e-01    0.00000000e+00    6.35381166e-04    5.99200276e-01
121      2.99986250e-08    6.00000000e-01    8.25000000e-03    6.00000000e-01    0.00000000e+00    9.40316707e-04    5.98980567e-01
122      3.00000000e-08    6.00000000e-01    0.00000000e+00    6.00000000e-01    0.00000000e+00    9.42263684e-04    5.98969926e-01
123      3.00006623e-08    6.00000000e-01    0.00000000e+00    5.95363739e-01    3.97393809e-03    1.15530819e-03    5.98893340e-01
124      3.00012443e-08    6.00000000e-01    0.00000000e+00    5.91289845e-01    7.46584702e-03    1.57068077e-03    5.98839521e-01
125      3.00018263e-08    6.00000000e-01    0.00000000e+00    5.87215951e-01    1.09577560e-02    2.11587469e-03    5.98799574e-01
126      3.00029903e-08    6.00000000e-01    0.00000000e+00    5.79068164e-01    1.79415738e-02    3.89716199e-03    5.98791250e-01
127      3.00053182e-08    6.00000000e-01    0.00000000e+00    5.62772589e-01    3.19092096e-02    9.43713919e-03    5.98931803e-01
128      3.00076461e-08    6.00000000e-01    0.00000000e+00    5.46477014e-01    4.58768453e-02    1.66895129e-02    5.99177335e-01
129      3.00123020e-08    6.00000000e-01    0.00000000e+00    5.13885864e-01    7.38121168e-02    3.34788279e-02    5.99680236e-01
130      3.00169579e-08    6.00000000e-01    0.00000000e+00    4.81294714e-01    1.01747388e-01    5.17406279e-02    6.00058345e-01
131      3.00216138e-08    6.00000000e-01    0.00000000e+00    4.48703564e-01    1.29682660e-01    7.05401236e-02    6.00269322e-01
132      3.00262697e-08    6.00000000e-01    0.00000000e+00    4.16112413e-01    1.57617931e-01    8.93385612e-02    6.00349887e-01
133      3.00355814e-08    6.00000000e-01    0.00000000e+00    3.50930113e-01    2.13488474e-01    1.23484414e-01    6.00256350e-01
134      3.00448932e-08    6.00000000e-01    0.00000000e+00    2.85747813e-01    2.69359017e-01    1.50308353e-01    5.99816395e-01
135      3.00542049e-08    6.00000000e-01    0.00000000e+00    2.20565513e-01    3.25229560e-01    1.69699164e-01    5.98775661e-01
136      3.00555305e-08    6.00000000e-01    0.00000000e+00    2.11286702e-01    3.33182827e-01    1.71877681e-01    5.98540551e-01
137      3.00568560e-08    6.00000000e-01    0.00000000e+00    2.02007891e-01    3.41136093e-01    1.73998290e-01    5.98284637e-01
138      3.00595071e-08    6.00000000e-01    0.00000000e+00    1.83450270e-01    3.57042626e-01    1.77877463e-01    5.97642783e-01
139      3.00621582e-08    6.00000000e-01    0.00000000e+00    1.64892648e-01    3.72949159e-01    1.81260303e-01    5.96785004e-01
140      3.00648093e-08    6.00000000e-01    0.00000000e+00    1.46335026e-01    3.88855692e-01    1.84123091e-01    5.95661760e-01
141      3.00674604e-08    6.00000000e-01    0.00000000e+00    1.27777405e-01    4.04762225e-01    1.86439704e-01    5.94242383e-01
142      3.00701115e-08    6.00000000e-01    0.00000000e+00    1.09219783e-01    4.20668758e-01    1.88189094e-01    5.92524711e-01
143      3.00727625e-08    6.00000000e-01    0.00000000e+00    9.06621611e-02    4.36575290e-01    1.89378818e-01    5.90545346e-01
144      3.00754136e-08    6.00000000e-01    0.00000000e+00    7.21045394e-02    4.52481823e-01    1.90179791e-01    5.88441683e-01
145      3.00760582e-08    6.00000000e-01    0.00000000e+00    6.75924569e-02    4.56349323e-01    1.90367406e-01    5.87944408e-01
146      3.00773474e-08    6.00000000e-01    0.00000000e+00    5.85682918e-02    4.64084321e-01    1.90816888e-01    5.87004893e-01
147      3.00786366e-08    6.00000000e-01    0.00000000e+00    4.95441267e-02    4.71819320e-01    1.91452415e-01    5.86188559e-01
148      3.00799257e-08    6.00000000e-01    0.00000000e+00    4.05199617e-02    4.79554319e-01    1.92291647e-01    5.85501205e-01
149      3.00812149e-08    6.00000000e-01    0.00000000e+00    3.14957966e-02    4.87289317e-01    1.93294112e-01    5.84919800e-01
